TA5C8 000:014.961   SEGGER J-Link V6.98 Log File
TA5C8 000:015.383   DLL Compiled: Mar  2 2021 15:48:59
TA5C8 000:015.396   Logging started @ 2026-07-15 00:53
TA5C8 000:015.410 - 15.420ms
TA5C8 000:015.475 JLINK_SetWarnOutHandler(...)
TA5C8 000:015.491 - 0.419ms
TA5C8 000:015.981 JLINK_OpenEx(...)
TA5C8 000:020.486   Firmware: J-Link V9 compiled Dec  8 2023 20:16:22
TA5C8 000:021.661   Firmware: J-Link V9 compiled Dec  8 2023 20:16:22
TA5C8 000:021.853   Decompressing FW timestamp took 125 us
TA5C8 000:032.570   Hardware: V9.70
TA5C8 000:032.676   S/N: 602725369
TA5C8 000:032.706   OEM: SEGGER
TA5C8 000:032.733   Feature(s): GDB, RDI, FlashBP, FlashDL, JFlash
TA5C8 000:036.777   TELNET listener socket opened on port 19021
TA5C8 000:037.047   WEBSRV Starting webserver
TA5C8 000:037.457   WEBSRV Webserver running on local port 19080
TA5C8 000:037.496 - 21.525ms returns "O.K."
TA5C8 000:037.530 JLINK_GetEmuCaps()
TA5C8 000:037.545 - 0.020ms returns 0xB9FF7BBF
TA5C8 000:037.565 JLINK_TIF_GetAvailable(...)
TA5C8 000:038.454 - 0.925ms
TA5C8 000:038.543 JLINK_SetErrorOutHandler(...)
TA5C8 000:038.568 - 0.040ms
TA5C8 000:038.727 JLINK_ExecCommand("ProjectFile = "C:\Users\haoyu\Desktop\2026µçČü\26µçČüĆ˝Ě¨»ŻŃ­ĽŁĐˇłµv2\MDK-ARM\JLinkSettings.ini"", ...). 
TA5C8 000:052.444   Ref file found at: C:\Keil_v5\ARM\Segger\JLinkDevices.ref
TA5C8 000:052.639   XML referenced by ref file: C:\Program Files (x86)\SEGGER\JLink\JLinkDevices.xml
TA5C8 000:053.225   C:\Program Files (x86)\SEGGER\JLink\JLinkDevices.xml evaluated successfully.
TA5C8 000:105.418 - 66.725ms returns 0x00
TA5C8 000:107.412 JLINK_ExecCommand("Device = STM32F411CEUx", ...). 
TA5C8 000:109.595   Device "STM32F411CE" selected.
TA5C8 000:110.274 - 2.850ms returns 0x00
TA5C8 000:110.306 JLINK_GetHardwareVersion()
TA5C8 000:110.319 - 0.018ms returns 97000
TA5C8 000:110.336 JLINK_GetDLLVersion()
TA5C8 000:110.345 - 0.013ms returns 69800
TA5C8 000:110.356 JLINK_GetOEMString(...)
TA5C8 000:110.376 JLINK_GetFirmwareString(...)
TA5C8 000:110.420 - 0.051ms
TA5C8 000:115.279 JLINK_GetDLLVersion()
TA5C8 000:115.316 - 0.042ms returns 69800
TA5C8 000:115.329 JLINK_GetCompileDateTime()
TA5C8 000:115.340 - 0.016ms
TA5C8 000:116.854 JLINK_GetFirmwareString(...)
TA5C8 000:116.883 - 0.034ms
TA5C8 000:118.292 JLINK_GetHardwareVersion()
TA5C8 000:118.320 - 0.034ms returns 97000
TA5C8 000:119.392 JLINK_GetSN()
TA5C8 000:119.412 - 0.026ms returns 602725369
TA5C8 000:125.214 JLINK_GetOEMString(...)
TA5C8 000:132.541 JLINK_TIF_Select(JLINKARM_TIF_SWD)
TA5C8 000:135.155 - 2.636ms returns 0x00
TA5C8 000:135.188 JLINK_HasError()
TA5C8 000:135.213 JLINK_SetSpeed(5000)
TA5C8 000:136.040 - 0.860ms
TA5C8 000:136.087 JLINK_GetId()
TA5C8 000:143.459   Found SW-DP with ID 0x2BA01477
TA5C8 000:192.163   Found SW-DP with ID 0x2BA01477
TA5C8 000:202.752   DPIDR: 0x2BA01477
TA5C8 000:205.585   Scanning AP map to find all available APs
TA5C8 000:210.513   AP[1]: Stopped AP scan as end of AP map has been reached
TA5C8 000:213.638   AP[0]: AHB-AP (IDR: 0x24770011)
TA5C8 000:217.360   Iterating through AP map to find AHB-AP to use
TA5C8 000:227.477   AP[0]: Core found
TA5C8 000:236.907   AP[0]: AHB-AP ROM base: 0xE00FF000
TA5C8 000:248.721   CPUID register: 0x410FC241. Implementer code: 0x41 (ARM)
TA5C8 000:256.524   Found Cortex-M4 r0p1, Little endian.
TA5C8 000:359.380   -- Max. mem block: 0x00010C20
TA5C8 000:360.447   CPU_ReadMem(4 bytes @ 0xE000EDF0)
TA5C8 000:361.279   CPU_ReadMem(4 bytes @ 0xE0002000)
TA5C8 000:371.935   FPUnit: 6 code (BP) slots and 2 literal slots
TA5C8 000:371.986   CPU_ReadMem(4 bytes @ 0xE000EDFC)
TA5C8 000:372.913   CPU_WriteMem(4 bytes @ 0xE000EDFC)
TA5C8 000:373.751   CPU_ReadMem(4 bytes @ 0xE0001000)
TA5C8 000:374.634   CPU_WriteMem(4 bytes @ 0xE0001000)
TA5C8 000:375.498   CPU_ReadMem(4 bytes @ 0xE000ED88)
TA5C8 000:376.250   CPU_WriteMem(4 bytes @ 0xE000ED88)
TA5C8 000:376.976   CPU_ReadMem(4 bytes @ 0xE000ED88)
TA5C8 000:377.703   CPU_WriteMem(4 bytes @ 0xE000ED88)
TA5C8 000:384.457   CoreSight components:
TA5C8 000:397.657   ROMTbl[0] @ E00FF000
TA5C8 000:397.801   CPU_ReadMem(64 bytes @ 0xE00FF000)
TA5C8 000:398.991   CPU_ReadMem(32 bytes @ 0xE000EFE0)
TA5C8 000:410.975   ROMTbl[0][0]: E000E000, CID: B105E00D, PID: 000BB00C SCS-M7
TA5C8 000:411.025   CPU_ReadMem(32 bytes @ 0xE0001FE0)
TA5C8 000:422.122   ROMTbl[0][1]: E0001000, CID: B105E00D, PID: 003BB002 DWT
TA5C8 000:422.184   CPU_ReadMem(32 bytes @ 0xE0002FE0)
TA5C8 000:431.008   ROMTbl[0][2]: E0002000, CID: B105E00D, PID: 002BB003 FPB
TA5C8 000:431.075   CPU_ReadMem(32 bytes @ 0xE0000FE0)
TA5C8 000:447.702   ROMTbl[0][3]: E0000000, CID: B105E00D, PID: 003BB001 ITM
TA5C8 000:447.758   CPU_ReadMem(32 bytes @ 0xE0040FE0)
TA5C8 000:458.089   ROMTbl[0][4]: E0040000, CID: B105900D, PID: 000BB9A1 TPIU
TA5C8 000:458.139   CPU_ReadMem(32 bytes @ 0xE0041FE0)
TA5C8 000:469.266   ROMTbl[0][5]: E0041000, CID: B105900D, PID: 000BB925 ETM
TA5C8 000:470.192 - 334.130ms returns 0x2BA01477
TA5C8 000:470.259 JLINK_GetDLLVersion()
TA5C8 000:470.272 - 0.021ms returns 69800
TA5C8 000:470.290 JLINK_CORE_GetFound()
TA5C8 000:470.302 - 0.017ms returns 0xE0000FF
TA5C8 000:470.329 JLINK_GetDebugInfo(0x100 = JLINKARM_ROM_TABLE_ADDR_INDEX)
TA5C8 000:470.342   Value=0xE00FF000
TA5C8 000:470.356 - 0.032ms returns 0
TA5C8 000:480.767 JLINK_GetDebugInfo(0x100 = JLINKARM_ROM_TABLE_ADDR_INDEX)
TA5C8 000:480.813   Value=0xE00FF000
TA5C8 000:480.833 - 0.071ms returns 0
TA5C8 000:480.846 JLINK_GetDebugInfo(0x101 = JLINKARM_DEBUG_INFO_ETM_ADDR_INDEX)
TA5C8 000:480.857   Value=0xE0041000
TA5C8 000:480.872 - 0.030ms returns 0
TA5C8 000:480.885 JLINK_ReadMemEx(0xE0041FD0, 0x20 Bytes, Flags = 0x02000004)
TA5C8 000:480.948   CPU_ReadMem(32 bytes @ 0xE0041FD0)
TA5C8 000:481.956   Data:  04 00 00 00 00 00 00 00 00 00 00 00 00 00 00 00 ...
TA5C8 000:482.003 - 1.127ms returns 32 (0x20)
TA5C8 000:482.024 JLINK_GetDebugInfo(0x102 = JLINKARM_DEBUG_INFO_MTB_ADDR_INDEX)
TA5C8 000:482.038   Value=0x00000000
TA5C8 000:482.062 - 0.045ms returns 0
TA5C8 000:482.080 JLINK_GetDebugInfo(0x103 = JLINKARM_DEBUG_INFO_TPIU_ADDR_INDEX)
TA5C8 000:482.092   Value=0xE0040000
TA5C8 000:482.116 - 0.041ms returns 0
TA5C8 000:482.130 JLINK_GetDebugInfo(0x104 = JLINKARM_DEBUG_INFO_ITM_ADDR_INDEX)
TA5C8 000:482.149   Value=0xE0000000
TA5C8 000:482.167 - 0.044ms returns 0
TA5C8 000:482.186 JLINK_GetDebugInfo(0x105 = JLINKARM_DEBUG_INFO_DWT_ADDR_INDEX)
TA5C8 000:482.199   Value=0xE0001000
TA5C8 000:482.224 - 0.044ms returns 0
TA5C8 000:482.238 JLINK_GetDebugInfo(0x106 = JLINKARM_DEBUG_INFO_FPB_ADDR_INDEX)
TA5C8 000:482.258   Value=0xE0002000
TA5C8 000:482.274 - 0.044ms returns 0
TA5C8 000:482.292 JLINK_GetDebugInfo(0x107 = JLINKARM_DEBUG_INFO_NVIC_ADDR_INDEX)
TA5C8 000:482.310   Value=0xE000E000
TA5C8 000:482.328 - 0.042ms returns 0
TA5C8 000:482.341 JLINK_GetDebugInfo(0x10C = JLINKARM_DEBUG_INFO_DBG_ADDR_INDEX)
TA5C8 000:482.353   Value=0xE000EDF0
TA5C8 000:482.371 - 0.041ms returns 0
TA5C8 000:482.392 JLINK_GetDebugInfo(0x01 = Unknown)
TA5C8 000:482.403   Value=0x00000001
TA5C8 000:482.419 - 0.032ms returns 0
TA5C8 000:482.435 JLINK_ReadMemU32(0xE000ED00, 0x1 Items)
TA5C8 000:482.463   CPU_ReadMem(4 bytes @ 0xE000ED00)
TA5C8 000:483.280   Data:  41 C2 0F 41
TA5C8 000:483.310   Debug reg: CPUID
TA5C8 000:483.326 - 0.899ms returns 1 (0x1)
TA5C8 000:483.345 JLINK_GetDebugInfo(0x10F = JLINKARM_DEBUG_INFO_HAS_CORTEX_M_SECURITY_EXT_INDEX)
TA5C8 000:483.359   Value=0x00000000
TA5C8 000:483.376 - 0.036ms returns 0
TA5C8 000:483.389 JLINK_HasError()
TA5C8 000:483.402 JLINK_SetResetType(JLINKARM_CM3_RESET_TYPE_NORMAL)
TA5C8 000:483.413 - 0.016ms returns JLINKARM_CM3_RESET_TYPE_NORMAL
TA5C8 000:483.426 JLINK_Reset()
TA5C8 000:483.751   CPU is running
TA5C8 000:483.778   CPU_WriteMem(4 bytes @ 0xE000EDF0)
TA5C8 000:484.617   CPU is running
TA5C8 000:484.647   CPU_WriteMem(4 bytes @ 0xE000EDFC)
TA5C8 000:497.641   Reset: Halt core after reset via DEMCR.VC_CORERESET.
TA5C8 000:514.912   Reset: Reset device via AIRCR.SYSRESETREQ.
TA5C8 000:514.994   CPU is running
TA5C8 000:515.025   CPU_WriteMem(4 bytes @ 0xE000ED0C)
TA5C8 000:569.769   CPU_ReadMem(4 bytes @ 0xE000EDF0)
TA5C8 000:570.640   CPU_ReadMem(4 bytes @ 0xE000EDF0)
TA5C8 000:571.490   CPU is running
TA5C8 000:571.546   CPU_WriteMem(4 bytes @ 0xE000EDF0)
TA5C8 000:572.424   CPU is running
TA5C8 000:572.458   CPU_WriteMem(4 bytes @ 0xE000EDFC)
TA5C8 000:579.317   CPU_ReadMem(4 bytes @ 0xE000EDF0)
TA5C8 000:583.210   CPU_WriteMem(4 bytes @ 0xE0002000)
TA5C8 000:583.999   CPU_ReadMem(4 bytes @ 0xE000EDFC)
TA5C8 000:584.837   CPU_ReadMem(4 bytes @ 0xE0001000)
TA5C8 000:585.589 - 102.180ms
TA5C8 000:585.641 JLINK_Halt()
TA5C8 000:585.653 - 0.017ms returns 0x00
TA5C8 000:585.669 JLINK_ReadMemU32(0xE000EDF0, 0x1 Items)
TA5C8 000:585.696   CPU_ReadMem(4 bytes @ 0xE000EDF0)
TA5C8 000:586.488   Data:  03 00 03 00
TA5C8 000:586.516   Debug reg: DHCSR
TA5C8 000:586.532 - 0.867ms returns 1 (0x1)
TA5C8 000:586.557 JLINK_WriteU32_64(0xE000EDF0, 0xA05F0003)
TA5C8 000:586.569   Debug reg: DHCSR
TA5C8 000:586.983   CPU_WriteMem(4 bytes @ 0xE000EDF0)
TA5C8 000:587.940 - 1.403ms returns 0 (0x00000000)
TA5C8 000:587.985 JLINK_WriteU32_64(0xE000EDFC, 0x01000000)
TA5C8 000:587.999   Debug reg: DEMCR
TA5C8 000:588.023   CPU_WriteMem(4 bytes @ 0xE000EDFC)
TA5C8 000:588.890 - 0.944ms returns 0 (0x00000000)
TA5C8 000:615.349 JLINK_GetHWStatus(...)
TA5C8 000:616.190 - 0.861ms returns 0
TA5C8 000:635.664 JLINK_GetNumBPUnits(Type = 0xFFFFFF00)
TA5C8 000:635.711 - 0.052ms returns 0x06
TA5C8 000:635.724 JLINK_GetNumBPUnits(Type = 0xF0)
TA5C8 000:635.735 - 0.015ms returns 0x2000
TA5C8 000:635.747 JLINK_GetNumWPUnits()
TA5C8 000:635.757 - 0.015ms returns 4
TA5C8 000:647.318 JLINK_GetSpeed()
TA5C8 000:647.355 - 0.043ms returns 4000
TA5C8 000:654.514 JLINK_ReadMemU32(0xE000E004, 0x1 Items)
TA5C8 000:654.567   CPU_ReadMem(4 bytes @ 0xE000E004)
TA5C8 000:655.449   Data:  02 00 00 00
TA5C8 000:655.506 - 1.000ms returns 1 (0x1)
TA5C8 000:655.537 JLINK_ReadMemU32(0xE000E004, 0x1 Items)
TA5C8 000:655.573   CPU_ReadMem(4 bytes @ 0xE000E004)
TA5C8 000:656.418   Data:  02 00 00 00
TA5C8 000:656.458 - 0.929ms returns 1 (0x1)
TA5C8 000:656.482 JLINK_WriteMemEx(0xE0001000, 0x0000001C Bytes, Flags = 0x02000004)
TA5C8 000:656.498   Data:  01 00 00 00 00 00 00 00 00 00 00 00 00 00 00 00 ...
TA5C8 000:656.552   CPU_WriteMem(28 bytes @ 0xE0001000)
TA5C8 000:657.515 - 1.062ms returns 0x1C
TA5C8 000:657.571 JLINK_Halt()
TA5C8 000:657.593 - 0.031ms returns 0x00
TA5C8 000:657.614 JLINK_IsHalted()
TA5C8 000:657.682 - 0.077ms returns TRUE
TA5C8 000:667.050 JLINK_WriteMem(0x20000000, 0x184 Bytes, ...)
TA5C8 000:667.080   Data:  00 BE 0A E0 0D 78 2D 06 68 40 08 24 40 00 00 D3 ...
TA5C8 000:667.375   CPU_WriteMem(388 bytes @ 0x20000000)
TA5C8 000:669.652 - 2.646ms returns 0x184
TA5C8 000:669.818 JLINK_HasError()
TA5C8 000:669.848 JLINK_WriteReg(R0, 0x08000000)
TA5C8 000:669.877 - 0.038ms returns 0
TA5C8 000:669.896 JLINK_WriteReg(R1, 0x017D7840)
TA5C8 000:669.914 - 0.025ms returns 0
TA5C8 000:669.931 JLINK_WriteReg(R2, 0x00000001)
TA5C8 000:669.948 - 0.024ms returns 0
TA5C8 000:669.965 JLINK_WriteReg(R3, 0x00000000)
TA5C8 000:669.981 - 0.023ms returns 0
TA5C8 000:670.037 JLINK_WriteReg(R4, 0x00000000)
TA5C8 000:670.101 - 0.073ms returns 0
TA5C8 000:670.122 JLINK_WriteReg(R5, 0x00000000)
TA5C8 000:670.140 - 0.026ms returns 0
TA5C8 000:670.159 JLINK_WriteReg(R6, 0x00000000)
TA5C8 000:670.174 - 0.022ms returns 0
TA5C8 000:670.223 JLINK_WriteReg(R7, 0x00000000)
TA5C8 000:670.240 - 0.026ms returns 0
TA5C8 000:670.259 JLINK_WriteReg(R8, 0x00000000)
TA5C8 000:670.505 - 0.254ms returns 0
TA5C8 000:670.525 JLINK_WriteReg(R9, 0x20000180)
TA5C8 000:670.556 - 0.038ms returns 0
TA5C8 000:670.574 JLINK_WriteReg(R10, 0x00000000)
TA5C8 000:670.589 - 0.023ms returns 0
TA5C8 000:670.607 JLINK_WriteReg(R11, 0x00000000)
TA5C8 000:670.623 - 0.024ms returns 0
TA5C8 000:670.650 JLINK_WriteReg(R12, 0x00000000)
TA5C8 000:670.667 - 0.033ms returns 0
TA5C8 000:670.736 JLINK_WriteReg(R13 (SP), 0x20001000)
TA5C8 000:670.754 - 0.025ms returns 0
TA5C8 000:670.777 JLINK_WriteReg(R14, 0x20000001)
TA5C8 000:670.796 - 0.026ms returns 0
TA5C8 000:670.813 JLINK_WriteReg(R15 (PC), 0x20000054)
TA5C8 000:670.828 - 0.023ms returns 0
TA5C8 000:670.846 JLINK_WriteReg(XPSR, 0x01000000)
TA5C8 000:670.864 - 0.026ms returns 0
TA5C8 000:670.882 JLINK_WriteReg(MSP, 0x20001000)
TA5C8 000:670.896 - 0.021ms returns 0
TA5C8 000:670.915 JLINK_WriteReg(PSP, 0x20001000)
TA5C8 000:670.931 - 0.023ms returns 0
TA5C8 000:670.948 JLINK_WriteReg(CFBP, 0x00000000)
TA5C8 000:670.963 - 0.022ms returns 0
TA5C8 000:670.980 JLINK_SetBPEx(Addr = 0x20000000, Type = 0xFFFFFFF2)
TA5C8 000:671.024   CPU_ReadMem(2 bytes @ 0x20000000)
TA5C8 000:671.932 - 0.981ms returns 0x00000001
TA5C8 000:671.982 JLINK_Go()
TA5C8 000:672.012   CPU_WriteMem(2 bytes @ 0x20000000)
TA5C8 000:672.920   CPU_ReadMem(4 bytes @ 0xE0001000)
TA5C8 000:673.785   CPU_WriteMem(4 bytes @ 0xE0002008)
TA5C8 000:673.833   CPU_WriteMem(4 bytes @ 0xE000200C)
TA5C8 000:673.859   CPU_WriteMem(4 bytes @ 0xE0002010)
TA5C8 000:673.882   CPU_WriteMem(4 bytes @ 0xE0002014)
TA5C8 000:673.906   CPU_WriteMem(4 bytes @ 0xE0002018)
TA5C8 000:673.930   CPU_WriteMem(4 bytes @ 0xE000201C)
TA5C8 000:675.478   CPU_WriteMem(4 bytes @ 0xE0001004)
TA5C8 000:679.495 - 7.547ms
TA5C8 000:679.552 JLINK_IsHalted()
TA5C8 000:682.619   CPU_ReadMem(2 bytes @ 0x20000000)
TA5C8 000:683.657 - 4.115ms returns TRUE
TA5C8 000:683.680 JLINK_ReadReg(R15 (PC))
TA5C8 000:683.697 - 0.022ms returns 0x20000000
TA5C8 000:683.710 JLINK_ClrBPEx(BPHandle = 0x00000001)
TA5C8 000:683.721 - 0.015ms returns 0x00
TA5C8 000:683.733 JLINK_ReadReg(R0)
TA5C8 000:683.743 - 0.015ms returns 0x00000000
TA5C8 000:689.192 JLINK_HasError()
TA5C8 000:689.258 JLINK_WriteReg(R0, 0x08000000)
TA5C8 000:689.287 - 0.037ms returns 0
TA5C8 000:689.307 JLINK_WriteReg(R1, 0x00004000)
TA5C8 000:689.322 - 0.022ms returns 0
TA5C8 000:689.339 JLINK_WriteReg(R2, 0x000000FF)
TA5C8 000:689.353 - 0.021ms returns 0
TA5C8 000:689.370 JLINK_WriteReg(R3, 0x00000000)
TA5C8 000:689.385 - 0.021ms returns 0
TA5C8 000:689.401 JLINK_WriteReg(R4, 0x00000000)
TA5C8 000:689.416 - 0.021ms returns 0
TA5C8 000:689.432 JLINK_WriteReg(R5, 0x00000000)
TA5C8 000:689.446 - 0.021ms returns 0
TA5C8 000:689.462 JLINK_WriteReg(R6, 0x00000000)
TA5C8 000:689.478 - 0.022ms returns 0
TA5C8 000:689.494 JLINK_WriteReg(R7, 0x00000000)
TA5C8 000:689.509 - 0.021ms returns 0
TA5C8 000:689.526 JLINK_WriteReg(R8, 0x00000000)
TA5C8 000:689.540 - 0.021ms returns 0
TA5C8 000:689.557 JLINK_WriteReg(R9, 0x20000180)
TA5C8 000:689.571 - 0.021ms returns 0
TA5C8 000:689.588 JLINK_WriteReg(R10, 0x00000000)
TA5C8 000:689.602 - 0.021ms returns 0
TA5C8 000:689.618 JLINK_WriteReg(R11, 0x00000000)
TA5C8 000:689.633 - 0.021ms returns 0
TA5C8 000:689.649 JLINK_WriteReg(R12, 0x00000000)
TA5C8 000:689.663 - 0.021ms returns 0
TA5C8 000:689.679 JLINK_WriteReg(R13 (SP), 0x20001000)
TA5C8 000:689.695 - 0.022ms returns 0
TA5C8 000:689.711 JLINK_WriteReg(R14, 0x20000001)
TA5C8 000:689.726 - 0.021ms returns 0
TA5C8 000:689.742 JLINK_WriteReg(R15 (PC), 0x20000020)
TA5C8 000:689.756 - 0.021ms returns 0
TA5C8 000:689.772 JLINK_WriteReg(XPSR, 0x01000000)
TA5C8 000:689.788 - 0.023ms returns 0
TA5C8 000:689.805 JLINK_WriteReg(MSP, 0x20001000)
TA5C8 000:689.820 - 0.022ms returns 0
TA5C8 000:689.837 JLINK_WriteReg(PSP, 0x20001000)
TA5C8 000:689.852 - 0.024ms returns 0
TA5C8 000:689.870 JLINK_WriteReg(CFBP, 0x00000000)
TA5C8 000:689.886 - 0.022ms returns 0
TA5C8 000:689.904 JLINK_SetBPEx(Addr = 0x20000000, Type = 0xFFFFFFF2)
TA5C8 000:689.920 - 0.023ms returns 0x00000002
TA5C8 000:689.937 JLINK_Go()
TA5C8 000:689.968   CPU_ReadMem(4 bytes @ 0xE0001000)
TA5C8 000:693.808 - 3.911ms
TA5C8 000:693.894 JLINK_IsHalted()
TA5C8 000:697.001   CPU_ReadMem(2 bytes @ 0x20000000)
TA5C8 000:697.862 - 3.992ms returns TRUE
TA5C8 000:697.910 JLINK_ReadReg(R15 (PC))
TA5C8 000:697.928 - 0.023ms returns 0x20000000
TA5C8 000:697.945 JLINK_ClrBPEx(BPHandle = 0x00000002)
TA5C8 000:697.956 - 0.016ms returns 0x00
TA5C8 000:697.970 JLINK_ReadReg(R0)
TA5C8 000:698.037 - 0.071ms returns 0x00000001
TA5C8 000:698.053 JLINK_HasError()
TA5C8 000:698.144 JLINK_WriteReg(R0, 0x08000000)
TA5C8 000:698.158 - 0.019ms returns 0
TA5C8 000:698.170 JLINK_WriteReg(R1, 0x00004000)
TA5C8 000:698.185 - 0.019ms returns 0
TA5C8 000:698.197 JLINK_WriteReg(R2, 0x000000FF)
TA5C8 000:698.207 - 0.014ms returns 0
TA5C8 000:698.218 JLINK_WriteReg(R3, 0x00000000)
TA5C8 000:698.228 - 0.014ms returns 0
TA5C8 000:698.239 JLINK_WriteReg(R4, 0x00000000)
TA5C8 000:698.249 - 0.015ms returns 0
TA5C8 000:698.261 JLINK_WriteReg(R5, 0x00000000)
TA5C8 000:698.271 - 0.014ms returns 0
TA5C8 000:698.282 JLINK_WriteReg(R6, 0x00000000)
TA5C8 000:698.292 - 0.015ms returns 0
TA5C8 000:698.304 JLINK_WriteReg(R7, 0x00000000)
TA5C8 000:698.314 - 0.014ms returns 0
TA5C8 000:698.326 JLINK_WriteReg(R8, 0x00000000)
TA5C8 000:698.336 - 0.015ms returns 0
TA5C8 000:698.349 JLINK_WriteReg(R9, 0x20000180)
TA5C8 000:698.359 - 0.015ms returns 0
TA5C8 000:698.372 JLINK_WriteReg(R10, 0x00000000)
TA5C8 000:698.383 - 0.016ms returns 0
TA5C8 000:698.395 JLINK_WriteReg(R11, 0x00000000)
TA5C8 000:698.405 - 0.014ms returns 0
TA5C8 000:698.416 JLINK_WriteReg(R12, 0x00000000)
TA5C8 000:698.426 - 0.014ms returns 0
TA5C8 000:698.437 JLINK_WriteReg(R13 (SP), 0x20001000)
TA5C8 000:698.447 - 0.015ms returns 0
TA5C8 000:698.458 JLINK_WriteReg(R14, 0x20000001)
TA5C8 000:698.468 - 0.014ms returns 0
TA5C8 000:698.479 JLINK_WriteReg(R15 (PC), 0x200000C0)
TA5C8 000:698.489 - 0.014ms returns 0
TA5C8 000:698.500 JLINK_WriteReg(XPSR, 0x01000000)
TA5C8 000:698.509 - 0.014ms returns 0
TA5C8 000:698.521 JLINK_WriteReg(MSP, 0x20001000)
TA5C8 000:698.531 - 0.015ms returns 0
TA5C8 000:698.543 JLINK_WriteReg(PSP, 0x20001000)
TA5C8 000:698.553 - 0.014ms returns 0
TA5C8 000:698.564 JLINK_WriteReg(CFBP, 0x00000000)
TA5C8 000:698.574 - 0.014ms returns 0
TA5C8 000:698.585 JLINK_SetBPEx(Addr = 0x20000000, Type = 0xFFFFFFF2)
TA5C8 000:698.597 - 0.015ms returns 0x00000003
TA5C8 000:698.608 JLINK_Go()
TA5C8 000:698.628   CPU_ReadMem(4 bytes @ 0xE0001000)
TA5C8 000:702.325 - 3.750ms
TA5C8 000:702.374 JLINK_IsHalted()
TA5C8 000:703.130 - 0.777ms returns FALSE
TA5C8 000:703.165 JLINK_HasError()
TA5C8 000:761.726 JLINK_IsHalted()
TA5C8 000:762.691 - 1.002ms returns FALSE
TA5C8 000:762.749 JLINK_HasError()
TA5C8 000:764.188 JLINK_IsHalted()
TA5C8 000:765.117 - 0.968ms returns FALSE
TA5C8 000:765.178 JLINK_HasError()
TA5C8 000:767.192 JLINK_IsHalted()
TA5C8 000:768.127 - 0.984ms returns FALSE
TA5C8 000:768.206 JLINK_HasError()
TA5C8 000:770.204 JLINK_IsHalted()
TA5C8 000:770.998 - 0.823ms returns FALSE
TA5C8 000:771.047 JLINK_HasError()
TA5C8 000:772.391 JLINK_IsHalted()
TA5C8 000:773.313 - 0.949ms returns FALSE
TA5C8 000:773.361 JLINK_HasError()
TA5C8 000:774.757 JLINK_IsHalted()
TA5C8 000:775.663 - 0.945ms returns FALSE
TA5C8 000:775.726 JLINK_HasError()
TA5C8 000:777.728 JLINK_IsHalted()
TA5C8 000:778.611 - 0.926ms returns FALSE
TA5C8 000:778.687 JLINK_HasError()
TA5C8 000:780.281 JLINK_IsHalted()
TA5C8 000:781.096 - 0.831ms returns FALSE
TA5C8 000:781.125 JLINK_HasError()
TA5C8 000:782.751 JLINK_IsHalted()
TA5C8 000:783.585 - 0.845ms returns FALSE
TA5C8 000:783.607 JLINK_HasError()
TA5C8 000:784.761 JLINK_IsHalted()
TA5C8 000:785.603 - 0.862ms returns FALSE
TA5C8 000:785.637 JLINK_HasError()
TA5C8 000:786.773 JLINK_IsHalted()
TA5C8 000:787.590 - 0.903ms returns FALSE
TA5C8 000:787.715 JLINK_HasError()
TA5C8 000:789.775 JLINK_IsHalted()
TA5C8 000:790.680 - 0.919ms returns FALSE
TA5C8 000:790.706 JLINK_HasError()
TA5C8 000:792.294 JLINK_IsHalted()
TA5C8 000:793.064 - 0.787ms returns FALSE
TA5C8 000:793.093 JLINK_HasError()
TA5C8 000:795.090 JLINK_IsHalted()
TA5C8 000:795.976 - 0.915ms returns FALSE
TA5C8 000:796.024 JLINK_HasError()
TA5C8 000:798.104 JLINK_IsHalted()
TA5C8 000:799.020 - 0.938ms returns FALSE
TA5C8 000:799.055 JLINK_HasError()
TA5C8 000:801.597 JLINK_IsHalted()
TA5C8 000:802.467 - 0.887ms returns FALSE
TA5C8 000:802.495 JLINK_HasError()
TA5C8 000:804.617 JLINK_IsHalted()
TA5C8 000:805.480 - 0.882ms returns FALSE
TA5C8 000:805.512 JLINK_HasError()
TA5C8 000:806.655 JLINK_IsHalted()
TA5C8 000:807.502 - 0.877ms returns FALSE
TA5C8 000:807.553 JLINK_HasError()
TA5C8 000:809.275 JLINK_IsHalted()
TA5C8 000:810.141 - 0.886ms returns FALSE
TA5C8 000:810.174 JLINK_HasError()
TA5C8 000:811.421 JLINK_IsHalted()
TA5C8 000:812.269 - 0.877ms returns FALSE
TA5C8 000:812.312 JLINK_HasError()
TA5C8 000:813.482 JLINK_IsHalted()
TA5C8 000:814.284 - 0.838ms returns FALSE
TA5C8 000:814.342 JLINK_HasError()
TA5C8 000:815.487 JLINK_IsHalted()
TA5C8 000:816.416 - 0.946ms returns FALSE
TA5C8 000:816.445 JLINK_HasError()
TA5C8 000:817.633 JLINK_IsHalted()
TA5C8 000:818.471 - 0.855ms returns FALSE
TA5C8 000:818.500 JLINK_HasError()
TA5C8 000:819.635 JLINK_IsHalted()
TA5C8 000:820.526 - 0.925ms returns FALSE
TA5C8 000:820.596 JLINK_HasError()
TA5C8 000:828.175 JLINK_IsHalted()
TA5C8 000:829.028 - 0.893ms returns FALSE
TA5C8 000:829.091 JLINK_HasError()
TA5C8 000:831.692 JLINK_IsHalted()
TA5C8 000:832.522 - 0.847ms returns FALSE
TA5C8 000:832.554 JLINK_HasError()
TA5C8 000:833.683 JLINK_IsHalted()
TA5C8 000:834.521 - 0.859ms returns FALSE
TA5C8 000:834.556 JLINK_HasError()
TA5C8 000:835.665 JLINK_IsHalted()
TA5C8 000:836.537 - 0.914ms returns FALSE
TA5C8 000:836.607 JLINK_HasError()
TA5C8 000:838.676 JLINK_IsHalted()
TA5C8 000:839.491 - 0.847ms returns FALSE
TA5C8 000:839.544 JLINK_HasError()
TA5C8 000:840.720 JLINK_IsHalted()
TA5C8 000:841.651 - 0.961ms returns FALSE
TA5C8 000:841.703 JLINK_HasError()
TA5C8 000:843.647 JLINK_IsHalted()
TA5C8 000:844.488 - 0.869ms returns FALSE
TA5C8 000:844.538 JLINK_HasError()
TA5C8 000:845.662 JLINK_IsHalted()
TA5C8 000:846.498 - 0.859ms returns FALSE
TA5C8 000:846.537 JLINK_HasError()
TA5C8 000:847.649 JLINK_IsHalted()
TA5C8 000:848.527 - 0.909ms returns FALSE
TA5C8 000:848.579 JLINK_HasError()
TA5C8 000:850.659 JLINK_IsHalted()
TA5C8 000:851.470 - 0.829ms returns FALSE
TA5C8 000:851.499 JLINK_HasError()
TA5C8 000:852.803 JLINK_IsHalted()
TA5C8 000:853.615 - 0.878ms returns FALSE
TA5C8 000:853.708 JLINK_HasError()
TA5C8 000:855.802 JLINK_IsHalted()
TA5C8 000:856.722 - 0.942ms returns FALSE
TA5C8 000:856.765 JLINK_HasError()
TA5C8 000:858.796 JLINK_IsHalted()
TA5C8 000:859.636 - 0.852ms returns FALSE
TA5C8 000:859.660 JLINK_HasError()
TA5C8 000:861.062 JLINK_IsHalted()
TA5C8 000:861.889 - 0.859ms returns FALSE
TA5C8 000:861.941 JLINK_HasError()
TA5C8 000:864.004 JLINK_IsHalted()
TA5C8 000:864.879 - 0.915ms returns FALSE
TA5C8 000:864.941 JLINK_HasError()
TA5C8 000:866.792 JLINK_IsHalted()
TA5C8 000:867.702 - 0.944ms returns FALSE
TA5C8 000:867.759 JLINK_HasError()
TA5C8 000:868.897 JLINK_IsHalted()
TA5C8 000:869.793 - 0.925ms returns FALSE
TA5C8 000:869.844 JLINK_HasError()
TA5C8 000:871.134 JLINK_IsHalted()
TA5C8 000:871.983 - 0.872ms returns FALSE
TA5C8 000:872.108 JLINK_HasError()
TA5C8 000:873.302 JLINK_IsHalted()
TA5C8 000:874.124 - 0.863ms returns FALSE
TA5C8 000:874.190 JLINK_HasError()
TA5C8 000:875.477 JLINK_IsHalted()
TA5C8 000:876.437 - 1.001ms returns FALSE
TA5C8 000:876.502 JLINK_HasError()
TA5C8 000:877.713 JLINK_IsHalted()
TA5C8 000:878.529 - 0.852ms returns FALSE
TA5C8 000:878.587 JLINK_HasError()
TA5C8 000:879.796 JLINK_IsHalted()
TA5C8 000:880.628 - 0.861ms returns FALSE
TA5C8 000:880.678 JLINK_HasError()
TA5C8 000:882.318 JLINK_IsHalted()
TA5C8 000:883.327 - 1.050ms returns FALSE
TA5C8 000:883.396 JLINK_HasError()
TA5C8 000:884.847 JLINK_IsHalted()
TA5C8 000:885.751 - 0.935ms returns FALSE
TA5C8 000:885.801 JLINK_HasError()
TA5C8 000:887.876 JLINK_IsHalted()
TA5C8 000:888.752 - 0.911ms returns FALSE
TA5C8 000:888.807 JLINK_HasError()
TA5C8 000:890.840 JLINK_IsHalted()
TA5C8 000:891.754 - 0.923ms returns FALSE
TA5C8 000:891.773 JLINK_HasError()
TA5C8 000:894.399 JLINK_IsHalted()
TA5C8 000:895.438 - 1.075ms returns FALSE
TA5C8 000:895.497 JLINK_HasError()
TA5C8 000:897.374 JLINK_IsHalted()
TA5C8 000:898.289 - 0.964ms returns FALSE
TA5C8 000:898.372 JLINK_HasError()
TA5C8 000:899.753 JLINK_IsHalted()
TA5C8 000:900.742 - 1.030ms returns FALSE
TA5C8 000:900.906 JLINK_HasError()
TA5C8 000:902.243 JLINK_IsHalted()
TA5C8 000:903.098 - 0.883ms returns FALSE
TA5C8 000:903.144 JLINK_HasError()
TA5C8 000:905.313 JLINK_IsHalted()
TA5C8 000:906.116 - 0.820ms returns FALSE
TA5C8 000:906.155 JLINK_HasError()
TA5C8 000:908.244 JLINK_IsHalted()
TA5C8 000:909.086 - 0.872ms returns FALSE
TA5C8 000:909.130 JLINK_HasError()
TA5C8 000:910.222 JLINK_IsHalted()
TA5C8 000:911.078 - 0.883ms returns FALSE
TA5C8 000:911.119 JLINK_HasError()
TA5C8 000:912.265 JLINK_IsHalted()
TA5C8 000:913.134 - 0.902ms returns FALSE
TA5C8 000:913.190 JLINK_HasError()
TA5C8 000:914.778 JLINK_IsHalted()
TA5C8 000:915.628 - 0.893ms returns FALSE
TA5C8 000:915.695 JLINK_HasError()
TA5C8 000:917.750 JLINK_IsHalted()
TA5C8 000:918.600 - 0.866ms returns FALSE
TA5C8 000:918.627 JLINK_HasError()
TA5C8 000:919.759 JLINK_IsHalted()
TA5C8 000:920.601 - 0.859ms returns FALSE
TA5C8 000:920.633 JLINK_HasError()
TA5C8 000:921.750 JLINK_IsHalted()
TA5C8 000:922.597 - 0.869ms returns FALSE
TA5C8 000:922.693 JLINK_HasError()
TA5C8 000:924.748 JLINK_IsHalted()
TA5C8 000:925.616 - 0.902ms returns FALSE
TA5C8 000:925.673 JLINK_HasError()
TA5C8 000:927.752 JLINK_IsHalted()
TA5C8 000:928.609 - 0.913ms returns FALSE
TA5C8 000:928.700 JLINK_HasError()
TA5C8 000:930.265 JLINK_IsHalted()
TA5C8 000:931.125 - 0.892ms returns FALSE
TA5C8 000:931.172 JLINK_HasError()
TA5C8 000:933.318 JLINK_IsHalted()
TA5C8 000:934.134 - 0.828ms returns FALSE
TA5C8 000:934.157 JLINK_HasError()
TA5C8 000:935.319 JLINK_IsHalted()
TA5C8 000:936.086 - 0.811ms returns FALSE
TA5C8 000:936.153 JLINK_HasError()
TA5C8 000:938.284 JLINK_IsHalted()
TA5C8 000:939.140 - 0.883ms returns FALSE
TA5C8 000:939.186 JLINK_HasError()
TA5C8 000:941.290 JLINK_IsHalted()
TA5C8 000:942.139 - 0.882ms returns FALSE
TA5C8 000:942.190 JLINK_HasError()
TA5C8 000:944.307 JLINK_IsHalted()
TA5C8 000:945.116 - 0.832ms returns FALSE
TA5C8 000:945.157 JLINK_HasError()
TA5C8 000:946.272 JLINK_IsHalted()
TA5C8 000:947.173 - 0.949ms returns FALSE
TA5C8 000:947.252 JLINK_HasError()
TA5C8 000:949.988 JLINK_IsHalted()
TA5C8 000:950.760 - 0.793ms returns FALSE
TA5C8 000:950.796 JLINK_HasError()
TA5C8 000:952.070 JLINK_IsHalted()
TA5C8 000:952.872 - 0.811ms returns FALSE
TA5C8 000:952.893 JLINK_HasError()
TA5C8 000:954.070 JLINK_IsHalted()
TA5C8 000:954.844 - 0.783ms returns FALSE
TA5C8 000:954.863 JLINK_HasError()
TA5C8 000:956.083 JLINK_IsHalted()
TA5C8 000:956.850 - 0.780ms returns FALSE
TA5C8 000:956.876 JLINK_HasError()
TA5C8 000:958.075 JLINK_IsHalted()
TA5C8 000:958.909 - 0.870ms returns FALSE
TA5C8 000:958.992 JLINK_HasError()
TA5C8 000:960.425 JLINK_IsHalted()
TA5C8 000:961.438 - 1.075ms returns FALSE
TA5C8 000:961.527 JLINK_HasError()
TA5C8 000:963.001 JLINK_IsHalted()
TA5C8 000:963.879 - 0.896ms returns FALSE
TA5C8 000:963.908 JLINK_HasError()
TA5C8 000:965.513 JLINK_IsHalted()
TA5C8 000:966.292 - 0.820ms returns FALSE
TA5C8 000:966.355 JLINK_HasError()
TA5C8 000:967.534 JLINK_IsHalted()
TA5C8 000:968.424 - 0.909ms returns FALSE
TA5C8 000:968.456 JLINK_HasError()
TA5C8 000:970.247 JLINK_IsHalted()
TA5C8 000:971.091 - 0.872ms returns FALSE
TA5C8 000:971.138 JLINK_HasError()
TA5C8 000:972.819 JLINK_IsHalted()
TA5C8 000:973.651 - 0.869ms returns FALSE
TA5C8 000:973.707 JLINK_HasError()
TA5C8 000:974.833 JLINK_IsHalted()
TA5C8 000:975.601 - 0.781ms returns FALSE
TA5C8 000:975.626 JLINK_HasError()
TA5C8 000:976.839 JLINK_IsHalted()
TA5C8 000:977.631 - 0.805ms returns FALSE
TA5C8 000:977.670 JLINK_HasError()
TA5C8 000:979.339 JLINK_IsHalted()
TA5C8 000:980.284 - 0.968ms returns FALSE
TA5C8 000:980.322 JLINK_HasError()
TA5C8 000:981.767 JLINK_IsHalted()
TA5C8 000:982.652 - 0.921ms returns FALSE
TA5C8 000:982.712 JLINK_HasError()
TA5C8 000:984.717 JLINK_IsHalted()
TA5C8 000:985.478 - 0.776ms returns FALSE
TA5C8 000:985.510 JLINK_HasError()
TA5C8 000:986.734 JLINK_IsHalted()
TA5C8 000:987.708 - 1.012ms returns FALSE
TA5C8 000:987.788 JLINK_HasError()
TA5C8 000:989.712 JLINK_IsHalted()
TA5C8 000:990.482 - 0.781ms returns FALSE
TA5C8 000:990.509 JLINK_HasError()
TA5C8 000:991.736 JLINK_IsHalted()
TA5C8 000:992.638 - 0.926ms returns FALSE
TA5C8 000:992.682 JLINK_HasError()
TA5C8 000:994.292 JLINK_IsHalted()
TA5C8 000:995.116 - 0.843ms returns FALSE
TA5C8 000:995.152 JLINK_HasError()
TA5C8 000:997.236 JLINK_IsHalted()
TA5C8 000:998.184 - 0.991ms returns FALSE
TA5C8 000:998.291 JLINK_HasError()
TA5C8 001:000.278 JLINK_IsHalted()
TA5C8 001:001.295 - 1.054ms returns FALSE
TA5C8 001:001.357 JLINK_HasError()
TA5C8 001:059.975 JLINK_IsHalted()
TA5C8 001:063.133   CPU_ReadMem(2 bytes @ 0x20000000)
TA5C8 001:064.051 - 4.124ms returns TRUE
TA5C8 001:064.124 JLINK_ReadReg(R15 (PC))
TA5C8 001:064.156 - 0.042ms returns 0x20000000
TA5C8 001:064.179 JLINK_ClrBPEx(BPHandle = 0x00000003)
TA5C8 001:064.202 - 0.033ms returns 0x00
TA5C8 001:064.226 JLINK_ReadReg(R0)
TA5C8 001:064.251 - 0.067ms returns 0x00000000
TA5C8 001:066.028 JLINK_HasError()
TA5C8 001:066.096 JLINK_WriteReg(R0, 0x08004000)
TA5C8 001:066.241 - 0.175ms returns 0
TA5C8 001:066.292 JLINK_WriteReg(R1, 0x00004000)
TA5C8 001:066.319 - 0.038ms returns 0
TA5C8 001:066.345 JLINK_WriteReg(R2, 0x000000FF)
TA5C8 001:066.442 - 0.109ms returns 0
TA5C8 001:066.470 JLINK_WriteReg(R3, 0x00000000)
TA5C8 001:066.490 - 0.030ms returns 0
TA5C8 001:066.564 JLINK_WriteReg(R4, 0x00000000)
TA5C8 001:066.643 - 0.089ms returns 0
TA5C8 001:066.669 JLINK_WriteReg(R5, 0x00000000)
TA5C8 001:066.689 - 0.028ms returns 0
TA5C8 001:066.709 JLINK_WriteReg(R6, 0x00000000)
TA5C8 001:066.734 - 0.033ms returns 0
TA5C8 001:066.759 JLINK_WriteReg(R7, 0x00000000)
TA5C8 001:066.782 - 0.033ms returns 0
TA5C8 001:066.806 JLINK_WriteReg(R8, 0x00000000)
TA5C8 001:066.829 - 0.032ms returns 0
TA5C8 001:066.895 JLINK_WriteReg(R9, 0x20000180)
TA5C8 001:066.949 - 0.116ms returns 0
TA5C8 001:067.079 JLINK_WriteReg(R10, 0x00000000)
TA5C8 001:067.138 - 0.069ms returns 0
TA5C8 001:067.161 JLINK_WriteReg(R11, 0x00000000)
TA5C8 001:067.229 - 0.079ms returns 0
TA5C8 001:067.253 JLINK_WriteReg(R12, 0x00000000)
TA5C8 001:067.272 - 0.028ms returns 0
TA5C8 001:067.324 JLINK_WriteReg(R13 (SP), 0x20001000)
TA5C8 001:067.404 - 0.095ms returns 0
TA5C8 001:067.433 JLINK_WriteReg(R14, 0x20000001)
TA5C8 001:067.453 - 0.031ms returns 0
TA5C8 001:067.486 JLINK_WriteReg(R15 (PC), 0x20000020)
TA5C8 001:067.512 - 0.037ms returns 0
TA5C8 001:067.572 JLINK_WriteReg(XPSR, 0x01000000)
TA5C8 001:067.596 - 0.033ms returns 0
TA5C8 001:067.618 JLINK_WriteReg(MSP, 0x20001000)
TA5C8 001:067.637 - 0.029ms returns 0
TA5C8 001:067.661 JLINK_WriteReg(PSP, 0x20001000)
TA5C8 001:067.687 - 0.038ms returns 0
TA5C8 001:067.747 JLINK_WriteReg(CFBP, 0x00000000)
TA5C8 001:067.794 - 0.057ms returns 0
TA5C8 001:067.819 JLINK_SetBPEx(Addr = 0x20000000, Type = 0xFFFFFFF2)
TA5C8 001:067.880 - 0.105ms returns 0x00000004
TA5C8 001:067.940 JLINK_Go()
TA5C8 001:067.982   CPU_ReadMem(4 bytes @ 0xE0001000)
TA5C8 001:071.984 - 4.098ms
TA5C8 001:072.079 JLINK_IsHalted()
TA5C8 001:075.013   CPU_ReadMem(2 bytes @ 0x20000000)
TA5C8 001:075.862 - 3.820ms returns TRUE
TA5C8 001:075.926 JLINK_ReadReg(R15 (PC))
TA5C8 001:075.960 - 0.045ms returns 0x20000000
TA5C8 001:075.987 JLINK_ClrBPEx(BPHandle = 0x00000004)
TA5C8 001:076.021 - 0.045ms returns 0x00
TA5C8 001:076.061 JLINK_ReadReg(R0)
TA5C8 001:076.131 - 0.095ms returns 0x00000001
TA5C8 001:076.176 JLINK_HasError()
TA5C8 001:076.205 JLINK_WriteReg(R0, 0x08004000)
TA5C8 001:076.226 - 0.030ms returns 0
TA5C8 001:076.248 JLINK_WriteReg(R1, 0x00004000)
TA5C8 001:076.268 - 0.030ms returns 0
TA5C8 001:076.293 JLINK_WriteReg(R2, 0x000000FF)
TA5C8 001:076.314 - 0.030ms returns 0
TA5C8 001:076.340 JLINK_WriteReg(R3, 0x00000000)
TA5C8 001:076.363 - 0.031ms returns 0
TA5C8 001:076.383 JLINK_WriteReg(R4, 0x00000000)
TA5C8 001:076.486 - 0.126ms returns 0
TA5C8 001:076.528 JLINK_WriteReg(R5, 0x00000000)
TA5C8 001:076.549 - 0.088ms returns 0
TA5C8 001:076.642 JLINK_WriteReg(R6, 0x00000000)
TA5C8 001:076.678 - 0.089ms returns 0
TA5C8 001:076.766 JLINK_WriteReg(R7, 0x00000000)
TA5C8 001:076.791 - 0.034ms returns 0
TA5C8 001:076.815 JLINK_WriteReg(R8, 0x00000000)
TA5C8 001:076.839 - 0.034ms returns 0
TA5C8 001:076.862 JLINK_WriteReg(R9, 0x20000180)
TA5C8 001:076.881 - 0.080ms returns 0
TA5C8 001:076.972 JLINK_WriteReg(R10, 0x00000000)
TA5C8 001:076.999 - 0.037ms returns 0
TA5C8 001:077.022 JLINK_WriteReg(R11, 0x00000000)
TA5C8 001:077.043 - 0.031ms returns 0
TA5C8 001:077.122 JLINK_WriteReg(R12, 0x00000000)
TA5C8 001:077.166 - 0.053ms returns 0
TA5C8 001:077.221 JLINK_WriteReg(R13 (SP), 0x20001000)
TA5C8 001:077.268 - 0.057ms returns 0
TA5C8 001:077.292 JLINK_WriteReg(R14, 0x20000001)
TA5C8 001:077.313 - 0.031ms returns 0
TA5C8 001:077.340 JLINK_WriteReg(R15 (PC), 0x200000C0)
TA5C8 001:077.433 - 0.104ms returns 0
TA5C8 001:077.463 JLINK_WriteReg(XPSR, 0x01000000)
TA5C8 001:077.483 - 0.029ms returns 0
TA5C8 001:077.505 JLINK_WriteReg(MSP, 0x20001000)
TA5C8 001:077.525 - 0.030ms returns 0
TA5C8 001:077.551 JLINK_WriteReg(PSP, 0x20001000)
TA5C8 001:077.689 - 0.151ms returns 0
TA5C8 001:077.716 JLINK_WriteReg(CFBP, 0x00000000)
TA5C8 001:077.787 - 0.087ms returns 0
TA5C8 001:077.820 JLINK_SetBPEx(Addr = 0x20000000, Type = 0xFFFFFFF2)
TA5C8 001:077.844 - 0.031ms returns 0x00000005
TA5C8 001:077.863 JLINK_Go()
TA5C8 001:077.955   CPU_ReadMem(4 bytes @ 0xE0001000)
TA5C8 001:081.728 - 3.919ms
TA5C8 001:081.831 JLINK_IsHalted()
TA5C8 001:082.584 - 0.774ms returns FALSE
TA5C8 001:082.646 JLINK_HasError()
TA5C8 001:088.244 JLINK_IsHalted()
TA5C8 001:089.174 - 0.974ms returns FALSE
TA5C8 001:089.244 JLINK_HasError()
TA5C8 001:091.239 JLINK_IsHalted()
TA5C8 001:092.190 - 1.089ms returns FALSE
TA5C8 001:092.381 JLINK_HasError()
TA5C8 001:094.223 JLINK_IsHalted()
TA5C8 001:095.188 - 1.020ms returns FALSE
TA5C8 001:095.277 JLINK_HasError()
TA5C8 001:097.244 JLINK_IsHalted()
TA5C8 001:098.161 - 0.958ms returns FALSE
TA5C8 001:098.228 JLINK_HasError()
TA5C8 001:100.250 JLINK_IsHalted()
TA5C8 001:101.166 - 0.966ms returns FALSE
TA5C8 001:101.247 JLINK_HasError()
TA5C8 001:103.243 JLINK_IsHalted()
TA5C8 001:104.170 - 0.964ms returns FALSE
TA5C8 001:104.230 JLINK_HasError()
TA5C8 001:106.324 JLINK_IsHalted()
TA5C8 001:107.308 - 1.032ms returns FALSE
TA5C8 001:107.388 JLINK_HasError()
TA5C8 001:109.361 JLINK_IsHalted()
TA5C8 001:110.304 - 0.991ms returns FALSE
TA5C8 001:110.383 JLINK_HasError()
TA5C8 001:131.678 JLINK_IsHalted()
TA5C8 001:132.678 - 1.038ms returns FALSE
TA5C8 001:132.739 JLINK_HasError()
TA5C8 001:146.756 JLINK_IsHalted()
TA5C8 001:147.676 - 0.979ms returns FALSE
TA5C8 001:147.770 JLINK_HasError()
TA5C8 001:177.224 JLINK_IsHalted()
TA5C8 001:178.331 - 1.198ms returns FALSE
TA5C8 001:178.463 JLINK_HasError()
TA5C8 001:207.775 JLINK_IsHalted()
TA5C8 001:208.744 - 1.013ms returns FALSE
TA5C8 001:208.817 JLINK_HasError()
TA5C8 001:223.715 JLINK_IsHalted()
TA5C8 001:224.663 - 0.999ms returns FALSE
TA5C8 001:224.739 JLINK_HasError()
TA5C8 001:239.130 JLINK_IsHalted()
TA5C8 001:240.047 - 0.947ms returns FALSE
TA5C8 001:240.102 JLINK_HasError()
TA5C8 001:254.992 JLINK_IsHalted()
TA5C8 001:255.918 - 0.972ms returns FALSE
TA5C8 001:256.006 JLINK_HasError()
TA5C8 001:270.687 JLINK_IsHalted()
TA5C8 001:271.677 - 1.033ms returns FALSE
TA5C8 001:271.744 JLINK_HasError()
TA5C8 001:286.165 JLINK_IsHalted()
TA5C8 001:287.134 - 1.024ms returns FALSE
TA5C8 001:287.231 JLINK_HasError()
TA5C8 001:302.386 JLINK_IsHalted()
TA5C8 001:303.331 - 1.000ms returns FALSE
TA5C8 001:303.414 JLINK_HasError()
TA5C8 001:317.067 JLINK_IsHalted()
TA5C8 001:318.027 - 0.999ms returns FALSE
TA5C8 001:318.092 JLINK_HasError()
TA5C8 001:332.211 JLINK_IsHalted()
TA5C8 001:333.162 - 1.009ms returns FALSE
TA5C8 001:333.249 JLINK_HasError()
TA5C8 001:348.455 JLINK_IsHalted()
TA5C8 001:349.483 - 1.101ms returns FALSE
TA5C8 001:349.606 JLINK_HasError()
TA5C8 001:363.802 JLINK_IsHalted()
TA5C8 001:364.785 - 1.048ms returns FALSE
TA5C8 001:364.878 JLINK_HasError()
TA5C8 001:379.149 JLINK_IsHalted()
TA5C8 001:380.254 - 1.145ms returns FALSE
TA5C8 001:380.347 JLINK_HasError()
TA5C8 001:394.563 JLINK_IsHalted()
TA5C8 001:395.549 - 1.030ms returns FALSE
TA5C8 001:395.626 JLINK_HasError()
TA5C8 001:410.170 JLINK_IsHalted()
TA5C8 001:411.221 - 1.097ms returns FALSE
TA5C8 001:411.310 JLINK_HasError()
TA5C8 001:426.400 JLINK_IsHalted()
TA5C8 001:429.544   CPU_ReadMem(2 bytes @ 0x20000000)
TA5C8 001:430.504 - 4.149ms returns TRUE
TA5C8 001:430.572 JLINK_ReadReg(R15 (PC))
TA5C8 001:430.600 - 0.037ms returns 0x20000000
TA5C8 001:430.619 JLINK_ClrBPEx(BPHandle = 0x00000005)
TA5C8 001:430.635 - 0.023ms returns 0x00
TA5C8 001:430.653 JLINK_ReadReg(R0)
TA5C8 001:430.679 - 0.035ms returns 0x00000000
TA5C8 001:432.882 JLINK_HasError()
TA5C8 001:432.932 JLINK_WriteReg(R0, 0x00000001)
TA5C8 001:432.964 - 0.045ms returns 0
TA5C8 001:432.991 JLINK_WriteReg(R1, 0x00004000)
TA5C8 001:433.012 - 0.031ms returns 0
TA5C8 001:433.037 JLINK_WriteReg(R2, 0x000000FF)
TA5C8 001:433.060 - 0.031ms returns 0
TA5C8 001:433.157 JLINK_WriteReg(R3, 0x00000000)
TA5C8 001:433.196 - 0.048ms returns 0
TA5C8 001:433.218 JLINK_WriteReg(R4, 0x00000000)
TA5C8 001:433.241 - 0.035ms returns 0
TA5C8 001:433.266 JLINK_WriteReg(R5, 0x00000000)
TA5C8 001:433.284 - 0.032ms returns 0
TA5C8 001:433.315 JLINK_WriteReg(R6, 0x00000000)
TA5C8 001:433.336 - 0.031ms returns 0
TA5C8 001:433.360 JLINK_WriteReg(R7, 0x00000000)
TA5C8 001:433.435 - 0.096ms returns 0
TA5C8 001:433.473 JLINK_WriteReg(R8, 0x00000000)
TA5C8 001:433.496 - 0.032ms returns 0
TA5C8 001:433.517 JLINK_WriteReg(R9, 0x20000180)
TA5C8 001:433.536 - 0.029ms returns 0
TA5C8 001:433.561 JLINK_WriteReg(R10, 0x00000000)
TA5C8 001:433.581 - 0.029ms returns 0
TA5C8 001:433.602 JLINK_WriteReg(R11, 0x00000000)
TA5C8 001:433.621 - 0.028ms returns 0
TA5C8 001:433.643 JLINK_WriteReg(R12, 0x00000000)
TA5C8 001:433.773 - 0.215ms returns 0
TA5C8 001:433.907 JLINK_WriteReg(R13 (SP), 0x20001000)
TA5C8 001:433.948 - 0.083ms returns 0
TA5C8 001:434.006 JLINK_WriteReg(R14, 0x20000001)
TA5C8 001:434.026 - 0.029ms returns 0
TA5C8 001:434.046 JLINK_WriteReg(R15 (PC), 0x20000086)
TA5C8 001:434.065 - 0.027ms returns 0
TA5C8 001:434.086 JLINK_WriteReg(XPSR, 0x01000000)
TA5C8 001:434.129 - 0.061ms returns 0
TA5C8 001:434.165 JLINK_WriteReg(MSP, 0x20001000)
TA5C8 001:434.242 - 0.096ms returns 0
TA5C8 001:434.312 JLINK_WriteReg(PSP, 0x20001000)
TA5C8 001:434.343 - 0.046ms returns 0
TA5C8 001:434.372 JLINK_WriteReg(CFBP, 0x00000000)
TA5C8 001:434.471 - 0.116ms returns 0
TA5C8 001:434.508 JLINK_SetBPEx(Addr = 0x20000000, Type = 0xFFFFFFF2)
TA5C8 001:434.538 - 0.082ms returns 0x00000006
TA5C8 001:434.622 JLINK_Go()
TA5C8 001:434.674   CPU_ReadMem(4 bytes @ 0xE0001000)
TA5C8 001:438.589 - 4.002ms
TA5C8 001:438.647 JLINK_IsHalted()
TA5C8 001:441.879   CPU_ReadMem(2 bytes @ 0x20000000)
TA5C8 001:442.799 - 4.202ms returns TRUE
TA5C8 001:442.893 JLINK_ReadReg(R15 (PC))
TA5C8 001:443.002 - 0.120ms returns 0x20000000
TA5C8 001:443.046 JLINK_ClrBPEx(BPHandle = 0x00000006)
TA5C8 001:443.067 - 0.039ms returns 0x00
TA5C8 001:443.104 JLINK_ReadReg(R0)
TA5C8 001:443.124 - 0.085ms returns 0x00000000
TA5C8 001:525.516 JLINK_WriteMem(0x20000000, 0x184 Bytes, ...)
TA5C8 001:525.568   Data:  00 BE 0A E0 0D 78 2D 06 68 40 08 24 40 00 00 D3 ...
TA5C8 001:525.624   CPU_WriteMem(388 bytes @ 0x20000000)
TA5C8 001:527.742 - 2.280ms returns 0x184
TA5C8 001:527.886 JLINK_HasError()
TA5C8 001:527.910 JLINK_WriteReg(R0, 0x08000000)
TA5C8 001:527.946 - 0.058ms returns 0
TA5C8 001:527.982 JLINK_WriteReg(R1, 0x017D7840)
TA5C8 001:528.000 - 0.025ms returns 0
TA5C8 001:528.017 JLINK_WriteReg(R2, 0x00000002)
TA5C8 001:528.035 - 0.030ms returns 0
TA5C8 001:528.060 JLINK_WriteReg(R3, 0x00000000)
TA5C8 001:528.098 - 0.048ms returns 0
TA5C8 001:528.122 JLINK_WriteReg(R4, 0x00000000)
TA5C8 001:528.188 - 0.105ms returns 0
TA5C8 001:528.248 JLINK_WriteReg(R5, 0x00000000)
TA5C8 001:528.270 - 0.041ms returns 0
TA5C8 001:528.312 JLINK_WriteReg(R6, 0x00000000)
TA5C8 001:528.338 - 0.035ms returns 0
TA5C8 001:528.360 JLINK_WriteReg(R7, 0x00000000)
TA5C8 001:528.381 - 0.030ms returns 0
TA5C8 001:528.404 JLINK_WriteReg(R8, 0x00000000)
TA5C8 001:528.424 - 0.030ms returns 0
TA5C8 001:528.452 JLINK_WriteReg(R9, 0x20000180)
TA5C8 001:528.476 - 0.034ms returns 0
TA5C8 001:528.500 JLINK_WriteReg(R10, 0x00000000)
TA5C8 001:528.533 - 0.044ms returns 0
TA5C8 001:528.557 JLINK_WriteReg(R11, 0x00000000)
TA5C8 001:528.579 - 0.035ms returns 0
TA5C8 001:528.606 JLINK_WriteReg(R12, 0x00000000)
TA5C8 001:528.632 - 0.038ms returns 0
TA5C8 001:528.660 JLINK_WriteReg(R13 (SP), 0x20001000)
TA5C8 001:528.684 - 0.036ms returns 0
TA5C8 001:528.712 JLINK_WriteReg(R14, 0x20000001)
TA5C8 001:528.733 - 0.032ms returns 0
TA5C8 001:528.758 JLINK_WriteReg(R15 (PC), 0x20000054)
TA5C8 001:528.778 - 0.032ms returns 0
TA5C8 001:528.807 JLINK_WriteReg(XPSR, 0x01000000)
TA5C8 001:528.834 - 0.052ms returns 0
TA5C8 001:528.875 JLINK_WriteReg(MSP, 0x20001000)
TA5C8 001:528.898 - 0.032ms returns 0
TA5C8 001:528.921 JLINK_WriteReg(PSP, 0x20001000)
TA5C8 001:528.940 - 0.030ms returns 0
TA5C8 001:528.965 JLINK_WriteReg(CFBP, 0x00000000)
TA5C8 001:528.985 - 0.030ms returns 0
TA5C8 001:529.012 JLINK_SetBPEx(Addr = 0x20000000, Type = 0xFFFFFFF2)
TA5C8 001:529.051   CPU_ReadMem(2 bytes @ 0x20000000)
TA5C8 001:529.888 - 0.934ms returns 0x00000007
TA5C8 001:529.971 JLINK_Go()
TA5C8 001:530.001   CPU_WriteMem(2 bytes @ 0x20000000)
TA5C8 001:530.903   CPU_ReadMem(4 bytes @ 0xE0001000)
TA5C8 001:534.647 - 4.726ms
TA5C8 001:534.724 JLINK_IsHalted()
TA5C8 001:537.843   CPU_ReadMem(2 bytes @ 0x20000000)
TA5C8 001:538.827 - 4.149ms returns TRUE
TA5C8 001:538.918 JLINK_ReadReg(R15 (PC))
TA5C8 001:538.947 - 0.038ms returns 0x20000000
TA5C8 001:538.971 JLINK_ClrBPEx(BPHandle = 0x00000007)
TA5C8 001:538.988 - 0.024ms returns 0x00
TA5C8 001:539.010 JLINK_ReadReg(R0)
TA5C8 001:539.026 - 0.023ms returns 0x00000000
TA5C8 001:540.470 JLINK_WriteMem(0x20000184, 0x27C Bytes, ...)
TA5C8 001:540.528   Data:  48 53 00 20 A5 03 00 08 AB 41 00 08 0F 3E 00 08 ...
TA5C8 001:540.590   CPU_WriteMem(636 bytes @ 0x20000184)
TA5C8 001:543.536 - 3.117ms returns 0x27C
TA5C8 001:543.611 JLINK_WriteMem(0x20000400, 0x184 Bytes, ...)
TA5C8 001:543.631   Data:  41 F0 80 01 63 29 01 F0 FD 80 73 29 01 F0 02 81 ...
TA5C8 001:543.684   CPU_WriteMem(388 bytes @ 0x20000400)
TA5C8 001:545.881 - 2.320ms returns 0x184
TA5C8 001:545.960 JLINK_HasError()
TA5C8 001:545.988 JLINK_WriteReg(R0, 0x08000000)
TA5C8 001:546.022 - 0.043ms returns 0
TA5C8 001:546.044 JLINK_WriteReg(R1, 0x00000400)
TA5C8 001:546.064 - 0.032ms returns 0
TA5C8 001:546.089 JLINK_WriteReg(R2, 0x20000184)
TA5C8 001:546.109 - 0.028ms returns 0
TA5C8 001:546.130 JLINK_WriteReg(R3, 0x00000000)
TA5C8 001:546.150 - 0.029ms returns 0
TA5C8 001:546.172 JLINK_WriteReg(R4, 0x00000000)
TA5C8 001:546.191 - 0.028ms returns 0
TA5C8 001:546.212 JLINK_WriteReg(R5, 0x00000000)
TA5C8 001:546.233 - 0.043ms returns 0
TA5C8 001:546.293 JLINK_WriteReg(R6, 0x00000000)
TA5C8 001:546.319 - 0.036ms returns 0
TA5C8 001:546.342 JLINK_WriteReg(R7, 0x00000000)
TA5C8 001:546.363 - 0.030ms returns 0
TA5C8 001:546.386 JLINK_WriteReg(R8, 0x00000000)
TA5C8 001:546.406 - 0.029ms returns 0
TA5C8 001:546.428 JLINK_WriteReg(R9, 0x20000180)
TA5C8 001:546.447 - 0.028ms returns 0
TA5C8 001:546.468 JLINK_WriteReg(R10, 0x00000000)
TA5C8 001:546.487 - 0.029ms returns 0
TA5C8 001:546.510 JLINK_WriteReg(R11, 0x00000000)
TA5C8 001:546.529 - 0.028ms returns 0
TA5C8 001:546.551 JLINK_WriteReg(R12, 0x00000000)
TA5C8 001:546.569 - 0.028ms returns 0
TA5C8 001:546.593 JLINK_WriteReg(R13 (SP), 0x20001000)
TA5C8 001:546.614 - 0.031ms returns 0
TA5C8 001:546.636 JLINK_WriteReg(R14, 0x20000001)
TA5C8 001:546.656 - 0.029ms returns 0
TA5C8 001:546.677 JLINK_WriteReg(R15 (PC), 0x2000010C)
TA5C8 001:546.699 - 0.030ms returns 0
TA5C8 001:546.720 JLINK_WriteReg(XPSR, 0x01000000)
TA5C8 001:546.741 - 0.029ms returns 0
TA5C8 001:546.771 JLINK_WriteReg(MSP, 0x20001000)
TA5C8 001:546.793 - 0.031ms returns 0
TA5C8 001:546.815 JLINK_WriteReg(PSP, 0x20001000)
TA5C8 001:546.834 - 0.028ms returns 0
TA5C8 001:546.855 JLINK_WriteReg(CFBP, 0x00000000)
TA5C8 001:546.874 - 0.027ms returns 0
TA5C8 001:546.896 JLINK_SetBPEx(Addr = 0x20000000, Type = 0xFFFFFFF2)
TA5C8 001:546.920 - 0.033ms returns 0x00000008
TA5C8 001:546.942 JLINK_Go()
TA5C8 001:546.981   CPU_ReadMem(4 bytes @ 0xE0001000)
TA5C8 001:550.844 - 3.948ms
TA5C8 001:550.915 JLINK_IsHalted()
TA5C8 001:551.782 - 0.952ms returns FALSE
TA5C8 001:551.895 JLINK_HasError()
TA5C8 001:581.290 JLINK_IsHalted()
TA5C8 001:584.623   CPU_ReadMem(2 bytes @ 0x20000000)
TA5C8 001:585.548 - 4.298ms returns TRUE
TA5C8 001:585.614 JLINK_ReadReg(R15 (PC))
TA5C8 001:585.646 - 0.041ms returns 0x20000000
TA5C8 001:585.668 JLINK_ClrBPEx(BPHandle = 0x00000008)
TA5C8 001:585.697 - 0.041ms returns 0x00
TA5C8 001:585.723 JLINK_ReadReg(R0)
TA5C8 001:585.747 - 0.034ms returns 0x00000000
TA5C8 001:587.490 JLINK_WriteMem(0x20000184, 0x27C Bytes, ...)
TA5C8 001:587.540   Data:  24 FA 05 F6 5E 40 12 BF 16 43 B2 FA 82 F5 02 FA ...
TA5C8 001:587.609   CPU_WriteMem(636 bytes @ 0x20000184)
TA5C8 001:590.596 - 3.144ms returns 0x27C
TA5C8 001:590.660 JLINK_WriteMem(0x20000400, 0x184 Bytes, ...)
TA5C8 001:590.683   Data:  40 1C 20 62 6D 1E F6 D5 70 BD 70 B5 04 46 85 69 ...
TA5C8 001:590.740   CPU_WriteMem(388 bytes @ 0x20000400)
TA5C8 001:592.976 - 2.357ms returns 0x184
TA5C8 001:593.048 JLINK_HasError()
TA5C8 001:593.075 JLINK_WriteReg(R0, 0x08000400)
TA5C8 001:593.111 - 0.050ms returns 0
TA5C8 001:593.145 JLINK_WriteReg(R1, 0x00000400)
TA5C8 001:593.165 - 0.029ms returns 0
TA5C8 001:593.187 JLINK_WriteReg(R2, 0x20000184)
TA5C8 001:593.207 - 0.031ms returns 0
TA5C8 001:593.233 JLINK_WriteReg(R3, 0x00000000)
TA5C8 001:593.253 - 0.032ms returns 0
TA5C8 001:593.281 JLINK_WriteReg(R4, 0x00000000)
TA5C8 001:593.300 - 0.033ms returns 0
TA5C8 001:593.328 JLINK_WriteReg(R5, 0x00000000)
TA5C8 001:593.356 - 0.039ms returns 0
TA5C8 001:593.379 JLINK_WriteReg(R6, 0x00000000)
TA5C8 001:593.399 - 0.032ms returns 0
TA5C8 001:593.424 JLINK_WriteReg(R7, 0x00000000)
TA5C8 001:593.450 - 0.044ms returns 0
TA5C8 001:593.482 JLINK_WriteReg(R8, 0x00000000)
TA5C8 001:593.503 - 0.124ms returns 0
TA5C8 001:593.649 JLINK_WriteReg(R9, 0x20000180)
TA5C8 001:593.680 - 0.041ms returns 0
TA5C8 001:593.707 JLINK_WriteReg(R10, 0x00000000)
TA5C8 001:593.734 - 0.037ms returns 0
TA5C8 001:593.822 JLINK_WriteReg(R11, 0x00000000)
TA5C8 001:593.863 - 0.054ms returns 0
TA5C8 001:593.893 JLINK_WriteReg(R12, 0x00000000)
TA5C8 001:593.923 - 0.039ms returns 0
TA5C8 001:593.946 JLINK_WriteReg(R13 (SP), 0x20001000)
TA5C8 001:593.968 - 0.067ms returns 0
TA5C8 001:594.026 JLINK_WriteReg(R14, 0x20000001)
TA5C8 001:594.049 - 0.030ms returns 0
TA5C8 001:594.068 JLINK_WriteReg(R15 (PC), 0x2000010C)
TA5C8 001:594.085 - 0.024ms returns 0
TA5C8 001:594.103 JLINK_WriteReg(XPSR, 0x01000000)
TA5C8 001:594.176 - 0.083ms returns 0
TA5C8 001:594.206 JLINK_WriteReg(MSP, 0x20001000)
TA5C8 001:594.233 - 0.079ms returns 0
TA5C8 001:594.317 JLINK_WriteReg(PSP, 0x20001000)
TA5C8 001:594.363 - 0.072ms returns 0
TA5C8 001:594.414 JLINK_WriteReg(CFBP, 0x00000000)
TA5C8 001:594.443 - 0.039ms returns 0
TA5C8 001:594.468 JLINK_SetBPEx(Addr = 0x20000000, Type = 0xFFFFFFF2)
TA5C8 001:594.556 - 0.099ms returns 0x00000009
TA5C8 001:594.635 JLINK_Go()
TA5C8 001:594.695   CPU_ReadMem(4 bytes @ 0xE0001000)
TA5C8 001:598.896 - 4.300ms
TA5C8 001:599.000 JLINK_IsHalted()
TA5C8 001:599.932 - 0.984ms returns FALSE
TA5C8 001:600.034 JLINK_HasError()
TA5C8 001:612.788 JLINK_IsHalted()
TA5C8 001:616.097   CPU_ReadMem(2 bytes @ 0x20000000)
TA5C8 001:617.253 - 4.512ms returns TRUE
TA5C8 001:617.328 JLINK_ReadReg(R15 (PC))
TA5C8 001:617.363 - 0.045ms returns 0x20000000
TA5C8 001:617.387 JLINK_ClrBPEx(BPHandle = 0x00000009)
TA5C8 001:617.412 - 0.037ms returns 0x00
TA5C8 001:617.441 JLINK_ReadReg(R0)
TA5C8 001:617.564 - 0.151ms returns 0x00000000
TA5C8 001:621.011 JLINK_WriteMem(0x20000184, 0x27C Bytes, ...)
TA5C8 001:621.062   Data:  02 D2 53 1C 0B 60 10 70 70 47 00 00 2D E9 FF 5F ...
TA5C8 001:621.122   CPU_WriteMem(636 bytes @ 0x20000184)
TA5C8 001:624.145 - 3.186ms returns 0x27C
TA5C8 001:624.223 JLINK_WriteMem(0x20000400, 0x184 Bytes, ...)
TA5C8 001:624.247   Data:  5F 46 20 46 E1 68 88 47 20 28 05 46 07 DB 31 2D ...
TA5C8 001:624.303   CPU_WriteMem(388 bytes @ 0x20000400)
TA5C8 001:626.499 - 2.320ms returns 0x184
TA5C8 001:626.576 JLINK_HasError()
TA5C8 001:626.604 JLINK_WriteReg(R0, 0x08000800)
TA5C8 001:626.643 - 0.047ms returns 0
TA5C8 001:626.666 JLINK_WriteReg(R1, 0x00000400)
TA5C8 001:626.683 - 0.025ms returns 0
TA5C8 001:626.701 JLINK_WriteReg(R2, 0x20000184)
TA5C8 001:626.719 - 0.030ms returns 0
TA5C8 001:626.742 JLINK_WriteReg(R3, 0x00000000)
TA5C8 001:626.860 - 0.144ms returns 0
TA5C8 001:626.910 JLINK_WriteReg(R4, 0x00000000)
TA5C8 001:627.038 - 0.154ms returns 0
TA5C8 001:627.083 JLINK_WriteReg(R5, 0x00000000)
TA5C8 001:627.105 - 0.032ms returns 0
TA5C8 001:627.128 JLINK_WriteReg(R6, 0x00000000)
TA5C8 001:627.176 - 0.095ms returns 0
TA5C8 001:627.245 JLINK_WriteReg(R7, 0x00000000)
TA5C8 001:627.268 - 0.037ms returns 0
TA5C8 001:627.305 JLINK_WriteReg(R8, 0x00000000)
TA5C8 001:627.325 - 0.030ms returns 0
TA5C8 001:627.349 JLINK_WriteReg(R9, 0x20000180)
TA5C8 001:627.373 - 0.036ms returns 0
TA5C8 001:627.399 JLINK_WriteReg(R10, 0x00000000)
TA5C8 001:627.421 - 0.035ms returns 0
TA5C8 001:627.447 JLINK_WriteReg(R11, 0x00000000)
TA5C8 001:627.468 - 0.057ms returns 0
TA5C8 001:627.537 JLINK_WriteReg(R12, 0x00000000)
TA5C8 001:627.566 - 0.039ms returns 0
TA5C8 001:627.594 JLINK_WriteReg(R13 (SP), 0x20001000)
TA5C8 001:627.613 - 0.027ms returns 0
TA5C8 001:627.688 JLINK_WriteReg(R14, 0x20000001)
TA5C8 001:627.730 - 0.053ms returns 0
TA5C8 001:627.755 JLINK_WriteReg(R15 (PC), 0x2000010C)
TA5C8 001:627.823 - 0.090ms returns 0
